T3328 000:019.647   SEGGER J-Link V6.86 Log File
T3328 000:019.754   DLL Compiled: Sep 24 2020 17:31:31
T3328 000:019.761   Logging started @ 2026-03-30 08:51
T3328 000:019.766 - 19.769ms
T3328 000:019.776 JLINK_SetWarnOutHandler(...)
T3328 000:019.783 - 0.010ms
T3328 000:019.791 JLINK_OpenEx(...)
T3328 000:021.177   Firmware: J-Link V9 compiled Dec  8 2023 20:16:22
T3328 000:021.335   Decompressing FW timestamp took 135 us
T3328 000:027.443   Hardware: V9.70
T3328 000:027.456   S/N: 602712489
T3328 000:027.462   OEM: SEGGER
T3328 000:027.468   Feature(s): GDB, RDI, FlashBP, FlashDL, JFlash
T3328 000:028.338   TELNET listener socket opened on port 19021
T3328 000:028.404   WEBSRV Starting webserver
T3328 000:028.490   WEBSRV Webserver running on local port 19080
T3328 000:028.499 - 8.710ms returns "O.K."
T3328 000:028.508 JLINK_GetEmuCaps()
T3328 000:028.513 - 0.006ms returns 0xB9FF7BBF
T3328 000:028.519 JLINK_TIF_GetAvailable(...)
T3328 000:028.633 - 0.117ms
T3328 000:028.642 JLINK_SetErrorOutHandler(...)
T3328 000:028.646 - 0.006ms
T3328 000:028.657 JLINK_ExecCommand("ProjectFile = "D:\UGit\OCFM_V2\MDK-ARM\JLinkSettings.ini"", ...). 
T3328 000:035.519 - 6.873ms returns 0x00
T3328 000:035.557 JLINK_ExecCommand("Device = STM32F407VGTx", ...). 
T3328 000:035.892   Device "STM32F407VG" selected.
T3328 000:036.158 - 0.599ms returns 0x00
T3328 000:036.176 JLINK_GetHardwareVersion()
T3328 000:036.181 - 0.007ms returns 97000
T3328 000:036.189 JLINK_GetDLLVersion()
T3328 000:036.194 - 0.006ms returns 68600
T3328 000:036.199 JLINK_GetOEMString(...)
T3328 000:036.204 JLINK_GetFirmwareString(...)
T3328 000:036.208 - 0.006ms
T3328 000:036.223 JLINK_GetDLLVersion()
T3328 000:036.227 - 0.006ms returns 68600
T3328 000:036.232 JLINK_GetCompileDateTime()
T3328 000:036.236 - 0.006ms
T3328 000:036.245 JLINK_GetFirmwareString(...)
T3328 000:036.249 - 0.006ms
T3328 000:036.256 JLINK_GetHardwareVersion()
T3328 000:036.260 - 0.006ms returns 97000
T3328 000:036.268 JLINK_GetSN()
T3328 000:036.272 - 0.006ms returns 602712489
T3328 000:036.280 JLINK_GetOEMString(...)
T3328 000:036.290 JLINK_TIF_Select(JLINKARM_TIF_SWD)
T3328 000:036.769 - 0.484ms returns 0x00
T3328 000:036.778 JLINK_HasError()
T3328 000:036.787 JLINK_SetSpeed(5000)
T3328 000:036.848 - 0.064ms
T3328 000:036.856 JLINK_GetId()
T3328 000:037.603   Found SW-DP with ID 0x2BA01477
T3328 000:047.341   Found SW-DP with ID 0x2BA01477
T3328 000:049.497   DPIDR: 0x2BA01477
T3328 000:049.516   Scanning AP map to find all available APs
T3328 000:049.953   AP[1]: Stopped AP scan as end of AP map has been reached
T3328 000:049.967   AP[0]: AHB-AP (IDR: 0x24770011)
T3328 000:049.976   Iterating through AP map to find AHB-AP to use
T3328 000:050.763   AP[0]: Core found
T3328 000:050.773   AP[0]: AHB-AP ROM base: 0xE00FF000
T3328 000:051.120   CPUID register: 0x410FC241. Implementer code: 0x41 (ARM)
T3328 000:051.131   Found Cortex-M4 r0p1, Little endian.
T3328 000:152.299   -- Max. mem block: 0x00010A80
T3328 000:152.321   CPU_ReadMem(4 bytes @ 0xE000EDF0)
T3328 000:152.757   CPU_ReadMem(4 bytes @ 0xE0002000)
T3328 000:153.052   FPUnit: 6 code (BP) slots and 2 literal slots
T3328 000:153.063   CPU_ReadMem(4 bytes @ 0xE000EDFC)
T3328 000:153.303   CPU_WriteMem(4 bytes @ 0xE000EDFC)
T3328 000:153.569   CPU_ReadMem(4 bytes @ 0xE0001000)
T3328 000:153.807   CPU_WriteMem(4 bytes @ 0xE0001000)
T3328 000:154.117   CPU_ReadMem(4 bytes @ 0xE000ED88)
T3328 000:154.355   CPU_WriteMem(4 bytes @ 0xE000ED88)
T3328 000:154.621   CPU_ReadMem(4 bytes @ 0xE000ED88)
T3328 000:154.860   CPU_WriteMem(4 bytes @ 0xE000ED88)
T3328 000:155.124   CoreSight components:
T3328 000:155.138   ROMTbl[0] @ E00FF000
T3328 000:155.145   CPU_ReadMem(64 bytes @ 0xE00FF000)
T3328 000:155.663   CPU_ReadMem(32 bytes @ 0xE000EFE0)
T3328 000:156.024   ROMTbl[0][0]: E000E000, CID: B105E00D, PID: 000BB00C SCS-M7
T3328 000:156.035   CPU_ReadMem(32 bytes @ 0xE0001FE0)
T3328 000:156.401   ROMTbl[0][1]: E0001000, CID: B105E00D, PID: 003BB002 DWT
T3328 000:156.412   CPU_ReadMem(32 bytes @ 0xE0002FE0)
T3328 000:156.784   ROMTbl[0][2]: E0002000, CID: B105E00D, PID: 002BB003 FPB
T3328 000:156.793   CPU_ReadMem(32 bytes @ 0xE0000FE0)
T3328 000:157.120   ROMTbl[0][3]: E0000000, CID: B105E00D, PID: 003BB001 ITM
T3328 000:157.129   CPU_ReadMem(32 bytes @ 0xE0040FE0)
T3328 000:157.496   ROMTbl[0][4]: E0040000, CID: B105900D, PID: 000BB9A1 TPIU
T3328 000:157.503   CPU_ReadMem(32 bytes @ 0xE0041FE0)
T3328 000:157.827   ROMTbl[0][5]: E0041000, CID: B105900D, PID: 000BB925 ETM
T3328 000:158.000 - 121.147ms returns 0x2BA01477
T3328 000:158.011 JLINK_GetDLLVersion()
T3328 000:158.015 - 0.006ms returns 68600
T3328 000:158.020 JLINK_CORE_GetFound()
T3328 000:158.025 - 0.006ms returns 0xE0000FF
T3328 000:158.030 JLINK_GetDebugInfo(0x100 = JLINKARM_ROM_TABLE_ADDR_INDEX)
T3328 000:158.035   Value=0xE00FF000
T3328 000:158.040 - 0.012ms returns 0
T3328 000:158.102 JLINK_GetDebugInfo(0x100 = JLINKARM_ROM_TABLE_ADDR_INDEX)
T3328 000:158.112   Value=0xE00FF000
T3328 000:158.118 - 0.018ms returns 0
T3328 000:158.124 JLINK_GetDebugInfo(0x101 = JLINKARM_DEBUG_INFO_ETM_ADDR_INDEX)
T3328 000:158.128   Value=0xE0041000
T3328 000:158.134 - 0.012ms returns 0
T3328 000:158.143 JLINK_ReadMemEx(0xE0041FD0, 0x20 Bytes, Flags = 0x02000004)
T3328 000:158.160   CPU_ReadMem(32 bytes @ 0xE0041FD0)
T3328 000:158.558   Data:  04 00 00 00 00 00 00 00 00 00 00 00 00 00 00 00 ...
T3328 000:158.568 - 0.427ms returns 32 (0x20)
T3328 000:158.575 JLINK_GetDebugInfo(0x102 = JLINKARM_DEBUG_INFO_MTB_ADDR_INDEX)
T3328 000:158.580   Value=0x00000000
T3328 000:158.585 - 0.012ms returns 0
T3328 000:158.590 JLINK_GetDebugInfo(0x103 = JLINKARM_DEBUG_INFO_TPIU_ADDR_INDEX)
T3328 000:158.595   Value=0xE0040000
T3328 000:158.600 - 0.011ms returns 0
T3328 000:158.605 JLINK_GetDebugInfo(0x104 = JLINKARM_DEBUG_INFO_ITM_ADDR_INDEX)
T3328 000:158.609   Value=0xE0000000
T3328 000:158.615 - 0.011ms returns 0
T3328 000:158.620 JLINK_GetDebugInfo(0x105 = JLINKARM_DEBUG_INFO_DWT_ADDR_INDEX)
T3328 000:158.624   Value=0xE0001000
T3328 000:158.629 - 0.011ms returns 0
T3328 000:158.634 JLINK_GetDebugInfo(0x106 = JLINKARM_DEBUG_INFO_FPB_ADDR_INDEX)
T3328 000:158.638   Value=0xE0002000
T3328 000:158.644 - 0.011ms returns 0
T3328 000:158.649 JLINK_GetDebugInfo(0x107 = JLINKARM_DEBUG_INFO_NVIC_ADDR_INDEX)
T3328 000:158.653   Value=0xE000E000
T3328 000:158.659 - 0.011ms returns 0
T3328 000:158.663 JLINK_GetDebugInfo(0x10C = JLINKARM_DEBUG_INFO_DBG_ADDR_INDEX)
T3328 000:158.667   Value=0xE000EDF0
T3328 000:158.673 - 0.011ms returns 0
T3328 000:158.678 JLINK_GetDebugInfo(0x01 = Unknown)
T3328 000:158.682   Value=0x00000001
T3328 000:158.688 - 0.011ms returns 0
T3328 000:158.693 JLINK_ReadMemU32(0xE000ED00, 0x1 Items)
T3328 000:158.701   CPU_ReadMem(4 bytes @ 0xE000ED00)
T3328 000:158.940   Data:  41 C2 0F 41
T3328 000:158.950   Debug reg: CPUID
T3328 000:158.956 - 0.265ms returns 1 (0x1)
T3328 000:158.962 JLINK_GetDebugInfo(0x10F = JLINKARM_DEBUG_INFO_HAS_CORTEX_M_SECURITY_EXT_INDEX)
T3328 000:158.967   Value=0x00000000
T3328 000:158.973 - 0.012ms returns 0
T3328 000:158.978 JLINK_HasError()
T3328 000:158.983 JLINK_SetResetType(JLINKARM_CM3_RESET_TYPE_NORMAL)
T3328 000:158.988 - 0.006ms returns JLINKARM_CM3_RESET_TYPE_NORMAL
T3328 000:158.993 JLINK_Reset()
T3328 000:159.006   CPU is running
T3328 000:159.013   CPU_WriteMem(4 bytes @ 0xE000EDF0)
T3328 000:159.277   CPU is running
T3328 000:159.288   CPU_WriteMem(4 bytes @ 0xE000EDFC)
T3328 000:159.558   Reset: Halt core after reset via DEMCR.VC_CORERESET.
T3328 000:159.873   Reset: Reset device via AIRCR.SYSRESETREQ.
T3328 000:159.884   CPU is running
T3328 000:159.891   CPU_WriteMem(4 bytes @ 0xE000ED0C)
T3328 000:212.881   CPU_ReadMem(4 bytes @ 0xE000EDF0)
T3328 000:213.189   CPU_ReadMem(4 bytes @ 0xE000EDF0)
T3328 000:213.507   CPU is running
T3328 000:213.520   CPU_WriteMem(4 bytes @ 0xE000EDF0)
T3328 000:213.758   CPU is running
T3328 000:213.771   CPU_WriteMem(4 bytes @ 0xE000EDFC)
T3328 000:219.296   CPU_ReadMem(4 bytes @ 0xE000EDF0)
T3328 000:221.424   CPU_WriteMem(4 bytes @ 0xE0002000)
T3328 000:221.671   CPU_ReadMem(4 bytes @ 0xE000EDFC)
T3328 000:221.908   CPU_ReadMem(4 bytes @ 0xE0001000)
T3328 000:222.157 - 63.170ms
T3328 000:222.174 JLINK_HasError()
T3328 000:222.180 JLINK_ReadReg(R15 (PC))
T3328 000:222.188 - 0.010ms returns 0x08000260
T3328 000:222.194 JLINK_ReadReg(XPSR)
T3328 000:222.198 - 0.006ms returns 0x01000000
T3328 000:222.253 JLINK_Halt()
T3328 000:222.263 - 0.011ms returns 0x00
T3328 000:222.269 JLINK_ReadMemU32(0xE000EDF0, 0x1 Items)
T3328 000:222.279   CPU_ReadMem(4 bytes @ 0xE000EDF0)
T3328 000:222.519   Data:  03 00 03 00
T3328 000:222.529   Debug reg: DHCSR
T3328 000:222.535 - 0.268ms returns 1 (0x1)
T3328 000:222.545 JLINK_WriteU32_64(0xE000EDF0, 0xA05F0003)
T3328 000:222.551   Debug reg: DHCSR
T3328 000:222.566   CPU_WriteMem(4 bytes @ 0xE000EDF0)
T3328 000:222.800 - 0.262ms returns 0 (0x00000000)
T3328 000:222.812 JLINK_WriteU32_64(0xE000EDFC, 0x01000000)
T3328 000:222.817   Debug reg: DEMCR
T3328 000:222.827   CPU_WriteMem(4 bytes @ 0xE000EDFC)
T3328 000:223.119 - 0.313ms returns 0 (0x00000000)
T3328 000:223.153 JLINK_GetHWStatus(...)
T3328 000:223.290 - 0.144ms returns 0
T3328 000:223.315 JLINK_GetNumBPUnits(Type = 0xFFFFFF00)
T3328 000:223.320 - 0.008ms returns 0x06
T3328 000:223.326 JLINK_GetNumBPUnits(Type = 0xF0)
T3328 000:223.330 - 0.006ms returns 0x2000
T3328 000:223.335 JLINK_GetNumWPUnits()
T3328 000:223.339 - 0.006ms returns 4
T3328 000:223.351 JLINK_GetSpeed()
T3328 000:223.355 - 0.006ms returns 4000
T3328 000:223.364 JLINK_ReadMemU32(0xE000E004, 0x1 Items)
T3328 000:223.372   CPU_ReadMem(4 bytes @ 0xE000E004)
T3328 000:223.610   Data:  02 00 00 00
T3328 000:223.620 - 0.258ms returns 1 (0x1)
T3328 000:223.627 JLINK_ReadMemU32(0xE000E004, 0x1 Items)
T3328 000:223.635   CPU_ReadMem(4 bytes @ 0xE000E004)
T3328 000:223.871   Data:  02 00 00 00
T3328 000:223.882 - 0.257ms returns 1 (0x1)
T3328 000:223.888 JLINK_WriteMemEx(0xE0001000, 0x0000001C Bytes, Flags = 0x02000004)
T3328 000:223.894   Data:  01 00 00 00 00 00 00 00 00 00 00 00 00 00 00 00 ...
T3328 000:224.097   CPU_WriteMem(28 bytes @ 0xE0001000)
T3328 000:224.443 - 0.560ms returns 0x1C
T3328 000:224.454 JLINK_HasError()
T3328 000:224.460 JLINK_ReadReg(R15 (PC))
T3328 000:224.466 - 0.008ms returns 0x08000260
T3328 000:224.472 JLINK_ReadReg(XPSR)
T3328 000:224.476 - 0.006ms returns 0x01000000
T3328 000:227.046 JLINK_ReadMemEx(0xE0001004, 0x4 Bytes, Flags = 0x02000000)
T3328 000:227.058   Data:  00 00 00 00
T3328 000:227.064   Debug reg: DWT_CYCCNT
T3328 000:227.070 - 0.026ms returns 4 (0x4)
T3328 000:879.333 JLINK_HasError()
T3328 000:879.353 JLINK_SetResetType(JLINKARM_CM3_RESET_TYPE_NORMAL)
T3328 000:879.358 - 0.007ms returns JLINKARM_CM3_RESET_TYPE_NORMAL
T3328 000:879.363 JLINK_Reset()
T3328 000:879.378   CPU_WriteMem(4 bytes @ 0xE000EDF0)
T3328 000:879.682   CPU_WriteMem(4 bytes @ 0xE000EDFC)
T3328 000:879.965   Reset: Halt core after reset via DEMCR.VC_CORERESET.
T3328 000:880.356   Reset: Reset device via AIRCR.SYSRESETREQ.
T3328 000:880.365   CPU_WriteMem(4 bytes @ 0xE000ED0C)
T3328 000:933.397   CPU_ReadMem(4 bytes @ 0xE000EDF0)
T3328 000:933.714   CPU_ReadMem(4 bytes @ 0xE000EDF0)
T3328 000:934.021   CPU_WriteMem(4 bytes @ 0xE000EDF0)
T3328 000:934.273   CPU_WriteMem(4 bytes @ 0xE000EDFC)
T3328 000:939.980   CPU_ReadMem(4 bytes @ 0xE000EDF0)
T3328 000:942.260   CPU_WriteMem(4 bytes @ 0xE0002000)
T3328 000:942.535   CPU_ReadMem(4 bytes @ 0xE000EDFC)
T3328 000:942.778   CPU_ReadMem(4 bytes @ 0xE0001000)
T3328 000:943.023 - 63.665ms
T3328 000:943.158 JLINK_HasError()
T3328 000:943.165 JLINK_ReadReg(R15 (PC))
T3328 000:943.172 - 0.009ms returns 0x08000260
T3328 000:943.178 JLINK_ReadReg(XPSR)
T3328 000:943.182 - 0.006ms returns 0x01000000
T3328 000:943.479 JLINK_ReadMemEx(0x08000260, 0x3C Bytes, Flags = 0x02000000)
T3328 000:943.492   CPU_ReadMem(128 bytes @ 0x08000240)
T3328 000:944.261    -- Updating C cache (128 bytes @ 0x08000240)
T3328 000:944.272    -- Read from C cache (60 bytes @ 0x08000260)
T3328 000:944.283   Data:  06 48 80 47 06 48 00 47 FE E7 FE E7 FE E7 FE E7 ...
T3328 000:944.289 - 0.812ms returns 60 (0x3C)
T3328 000:944.296 JLINK_ReadMemEx(0x08000260, 0x2 Bytes, Flags = 0x02000000)
T3328 000:944.302    -- Read from C cache (2 bytes @ 0x08000260)
T3328 000:944.308   Data:  06 48
T3328 000:944.314 - 0.019ms returns 2 (0x2)
T3328 000:944.359 JLINK_ReadMemEx(0x08000262, 0x2 Bytes, Flags = 0x02000000)
T3328 000:944.364    -- Read from C cache (2 bytes @ 0x08000262)
T3328 000:944.370   Data:  80 47
T3328 000:944.376 - 0.019ms returns 2 (0x2)
T3328 000:944.389 JLINK_ReadMemEx(0x08000262, 0x2 Bytes, Flags = 0x02000000)
T3328 000:944.394    -- Read from C cache (2 bytes @ 0x08000262)
T3328 000:944.400   Data:  80 47
T3328 000:944.406 - 0.018ms returns 2 (0x2)
T3328 000:944.411 JLINK_ReadMemEx(0x08000264, 0x3C Bytes, Flags = 0x02000000)
T3328 000:944.415    -- Read from C cache (60 bytes @ 0x08000264)
T3328 000:944.422   Data:  06 48 00 47 FE E7 FE E7 FE E7 FE E7 FE E7 FE E7 ...
T3328 000:944.428 - 0.018ms returns 60 (0x3C)
T3328 000:944.432 JLINK_ReadMemEx(0x08000264, 0x2 Bytes, Flags = 0x02000000)
T3328 000:944.437    -- Read from C cache (2 bytes @ 0x08000264)
T3328 000:944.443   Data:  06 48
T3328 000:944.449 - 0.018ms returns 2 (0x2)
T3328 002:326.467 JLINK_HasError()
T3328 002:326.484 JLINK_ReadReg(R0)
T3328 002:326.784 - 0.303ms returns 0x00000000
T3328 002:326.792 JLINK_ReadReg(R1)
T3328 002:326.797 - 0.007ms returns 0x00000000
T3328 002:326.802 JLINK_ReadReg(R2)
T3328 002:326.806 - 0.006ms returns 0x00000000
T3328 002:326.811 JLINK_ReadReg(R3)
T3328 002:326.815 - 0.006ms returns 0x00000000
T3328 002:326.820 JLINK_ReadReg(R4)
T3328 002:326.825 - 0.006ms returns 0x00000000
T3328 002:326.829 JLINK_ReadReg(R5)
T3328 002:326.834 - 0.006ms returns 0x00000000
T3328 002:326.839 JLINK_ReadReg(R6)
T3328 002:326.843 - 0.006ms returns 0x00000000
T3328 002:326.848 JLINK_ReadReg(R7)
T3328 002:326.852 - 0.006ms returns 0x00000000
T3328 002:326.857 JLINK_ReadReg(R8)
T3328 002:326.865 - 0.010ms returns 0x00000000
T3328 002:326.870 JLINK_ReadReg(R9)
T3328 002:326.875 - 0.006ms returns 0x00000000
T3328 002:326.879 JLINK_ReadReg(R10)
T3328 002:326.884 - 0.006ms returns 0x00000000
T3328 002:326.889 JLINK_ReadReg(R11)
T3328 002:326.893 - 0.006ms returns 0x00000000
T3328 002:326.898 JLINK_ReadReg(R12)
T3328 002:326.902 - 0.006ms returns 0x00000000
T3328 002:326.907 JLINK_ReadReg(R13 (SP))
T3328 002:326.911 - 0.006ms returns 0x20018CF8
T3328 002:326.916 JLINK_ReadReg(R14)
T3328 002:326.920 - 0.006ms returns 0xFFFFFFFF
T3328 002:326.925 JLINK_ReadReg(R15 (PC))
T3328 002:326.930 - 0.006ms returns 0x08000260
T3328 002:326.935 JLINK_ReadReg(XPSR)
T3328 002:326.939 - 0.006ms returns 0x01000000
T3328 002:326.944 JLINK_ReadReg(MSP)
T3328 002:326.948 - 0.006ms returns 0x20018CF8
T3328 002:326.953 JLINK_ReadReg(PSP)
T3328 002:326.957 - 0.006ms returns 0x00000000
T3328 002:326.962 JLINK_ReadReg(CFBP)
T3328 002:326.966 - 0.006ms returns 0x00000000
T3328 002:326.971 JLINK_ReadReg(FPSCR)
T3328 002:330.030 - 3.066ms returns 0x00000000
T3328 002:330.043 JLINK_ReadReg(FPS0)
T3328 002:330.049 - 0.008ms returns 0x00000000
T3328 002:330.054 JLINK_ReadReg(FPS1)
T3328 002:330.058 - 0.006ms returns 0x00000000
T3328 002:330.063 JLINK_ReadReg(FPS2)
T3328 002:330.067 - 0.006ms returns 0x00000000
T3328 002:330.072 JLINK_ReadReg(FPS3)
T3328 002:330.076 - 0.006ms returns 0x00000000
T3328 002:330.081 JLINK_ReadReg(FPS4)
T3328 002:330.085 - 0.006ms returns 0x00000000
T3328 002:330.090 JLINK_ReadReg(FPS5)
T3328 002:330.095 - 0.006ms returns 0x00000000
T3328 002:330.100 JLINK_ReadReg(FPS6)
T3328 002:330.104 - 0.006ms returns 0x00000000
T3328 002:330.109 JLINK_ReadReg(FPS7)
T3328 002:330.113 - 0.006ms returns 0x00000000
T3328 002:330.118 JLINK_ReadReg(FPS8)
T3328 002:330.122 - 0.006ms returns 0x00000000
T3328 002:330.127 JLINK_ReadReg(FPS9)
T3328 002:330.131 - 0.006ms returns 0x00000000
T3328 002:330.136 JLINK_ReadReg(FPS10)
T3328 002:330.140 - 0.006ms returns 0x00000000
T3328 002:330.190 JLINK_ReadReg(FPS11)
T3328 002:330.197 - 0.009ms returns 0x00000000
T3328 002:330.202 JLINK_ReadReg(FPS12)
T3328 002:330.207 - 0.006ms returns 0x00000000
T3328 002:330.212 JLINK_ReadReg(FPS13)
T3328 002:330.216 - 0.006ms returns 0x00000000
T3328 002:330.221 JLINK_ReadReg(FPS14)
T3328 002:330.225 - 0.006ms returns 0x00000000
T3328 002:330.230 JLINK_ReadReg(FPS15)
T3328 002:330.235 - 0.007ms returns 0x00000000
T3328 002:330.240 JLINK_ReadReg(FPS16)
T3328 002:330.245 - 0.006ms returns 0x00000000
T3328 002:330.250 JLINK_ReadReg(FPS17)
T3328 002:330.254 - 0.006ms returns 0x00000000
T3328 002:330.259 JLINK_ReadReg(FPS18)
T3328 002:330.263 - 0.006ms returns 0x00000000
T3328 002:330.268 JLINK_ReadReg(FPS19)
T3328 002:330.272 - 0.006ms returns 0x00000000
T3328 002:330.277 JLINK_ReadReg(FPS20)
T3328 002:330.281 - 0.006ms returns 0x00000000
T3328 002:330.286 JLINK_ReadReg(FPS21)
T3328 002:330.290 - 0.006ms returns 0x00000000
T3328 002:330.295 JLINK_ReadReg(FPS22)
T3328 002:330.300 - 0.006ms returns 0x00000000
T3328 002:330.304 JLINK_ReadReg(FPS23)
T3328 002:330.309 - 0.006ms returns 0x00000000
T3328 002:330.314 JLINK_ReadReg(FPS24)
T3328 002:330.318 - 0.006ms returns 0x00000000
T3328 002:330.323 JLINK_ReadReg(FPS25)
T3328 002:330.327 - 0.006ms returns 0x00000000
T3328 002:330.332 JLINK_ReadReg(FPS26)
T3328 002:330.336 - 0.006ms returns 0x00000000
T3328 002:330.341 JLINK_ReadReg(FPS27)
T3328 002:330.345 - 0.006ms returns 0x00000000
T3328 002:330.350 JLINK_ReadReg(FPS28)
T3328 002:330.354 - 0.006ms returns 0x00000000
T3328 002:330.359 JLINK_ReadReg(FPS29)
T3328 002:330.363 - 0.006ms returns 0x00000000
T3328 002:330.368 JLINK_ReadReg(FPS30)
T3328 002:330.372 - 0.006ms returns 0x00000000
T3328 002:330.377 JLINK_ReadReg(FPS31)
T3328 002:330.381 - 0.006ms returns 0x00000000
T1AE4 002:412.404 JLINK_ReadMemEx(0x08000260, 0x2 Bytes, Flags = 0x02000000)
T1AE4 002:412.425    -- Read from C cache (2 bytes @ 0x08000260)
T1AE4 002:412.432   Data:  06 48
T1AE4 002:412.439 - 0.037ms returns 2 (0x2)
T1AE4 002:412.445 JLINK_HasError()
T1AE4 002:412.452 JLINK_SetBPEx(Addr = 0x08043740, Type = 0xFFFFFFF2)
T1AE4 002:412.460 - 0.010ms returns 0x00000001
T1AE4 002:412.465 JLINK_HasError()
T1AE4 002:412.470 JLINK_SetBPEx(Addr = 0x08003438, Type = 0xFFFFFFF2)
T1AE4 002:412.475 - 0.006ms returns 0x00000002
T1AE4 002:412.479 JLINK_HasError()
T1AE4 002:412.484 JLINK_HasError()
T1AE4 002:412.489 JLINK_Go()
T1AE4 002:412.516   CPU_WriteMem(4 bytes @ 0xE0002000)
T1AE4 002:412.828   CPU_WriteMem(4 bytes @ 0xE0002000)
T1AE4 002:413.142   CPU_ReadMem(4 bytes @ 0xE0001000)
T1AE4 002:413.420   CPU_WriteMem(4 bytes @ 0xE0002008)
T1AE4 002:413.429   CPU_WriteMem(4 bytes @ 0xE000200C)
T1AE4 002:413.435   CPU_WriteMem(4 bytes @ 0xE0002010)
T1AE4 002:413.442   CPU_WriteMem(4 bytes @ 0xE0002014)
T1AE4 002:413.448   CPU_WriteMem(4 bytes @ 0xE0002018)
T1AE4 002:413.454   CPU_WriteMem(4 bytes @ 0xE000201C)
T1AE4 002:414.402   CPU_WriteMem(4 bytes @ 0xE0001004)
T1AE4 002:414.889 - 2.405ms
T1AE4 002:515.472 JLINK_HasError()
T1AE4 002:515.499 JLINK_IsHalted()
T1AE4 002:517.505 - 2.014ms returns TRUE
T1AE4 002:517.518 JLINK_HasError()
T1AE4 002:517.523 JLINK_Halt()
T1AE4 002:517.528 - 0.006ms returns 0x00
T1AE4 002:517.533 JLINK_IsHalted()
T1AE4 002:517.537 - 0.006ms returns TRUE
T1AE4 002:517.542 JLINK_IsHalted()
T1AE4 002:517.546 - 0.005ms returns TRUE
T1AE4 002:517.551 JLINK_IsHalted()
T1AE4 002:517.555 - 0.006ms returns TRUE
T1AE4 002:517.560 JLINK_HasError()
T1AE4 002:517.565 JLINK_ReadReg(R15 (PC))
T1AE4 002:517.571 - 0.008ms returns 0x08043740
T1AE4 002:517.576 JLINK_ReadReg(XPSR)
T1AE4 002:517.581 - 0.006ms returns 0x61000000
T1AE4 002:517.588 JLINK_HasError()
T1AE4 002:517.593 JLINK_ClrBPEx(BPHandle = 0x00000001)
T1AE4 002:517.598 - 0.006ms returns 0x00
T1AE4 002:517.603 JLINK_HasError()
T1AE4 002:517.608 JLINK_ClrBPEx(BPHandle = 0x00000002)
T1AE4 002:517.612 - 0.006ms returns 0x00
T1AE4 002:517.617 JLINK_HasError()
T1AE4 002:517.622 JLINK_HasError()
T1AE4 002:517.629 JLINK_ReadMemU32(0xE000ED30, 0x1 Items)
T1AE4 002:517.641   CPU_ReadMem(4 bytes @ 0xE000ED30)
T1AE4 002:517.947   Data:  02 00 00 00
T1AE4 002:517.957 - 0.330ms returns 1 (0x1)
T1AE4 002:517.964 JLINK_ReadMemU32(0xE0001028, 0x1 Items)
T1AE4 002:517.973   CPU_ReadMem(4 bytes @ 0xE0001028)
T1AE4 002:518.289   Data:  00 00 00 00
T1AE4 002:518.299   Debug reg: DWT_FUNC[0]
T1AE4 002:518.305 - 0.343ms returns 1 (0x1)
T1AE4 002:518.312 JLINK_ReadMemU32(0xE0001038, 0x1 Items)
T1AE4 002:518.320   CPU_ReadMem(4 bytes @ 0xE0001038)
T1AE4 002:518.653   Data:  00 02 00 00
T1AE4 002:518.663   Debug reg: DWT_FUNC[1]
T1AE4 002:518.669 - 0.359ms returns 1 (0x1)
T1AE4 002:518.675 JLINK_ReadMemU32(0xE0001048, 0x1 Items)
T1AE4 002:518.684   CPU_ReadMem(4 bytes @ 0xE0001048)
T1AE4 002:518.984   Data:  00 00 00 00
T1AE4 002:518.994   Debug reg: DWT_FUNC[2]
T1AE4 002:519.000 - 0.327ms returns 1 (0x1)
T1AE4 002:519.007 JLINK_ReadMemU32(0xE0001058, 0x1 Items)
T1AE4 002:519.015   CPU_ReadMem(4 bytes @ 0xE0001058)
T1AE4 002:519.281   Data:  00 00 00 00
T1AE4 002:519.291   Debug reg: DWT_FUNC[3]
T1AE4 002:519.297 - 0.292ms returns 1 (0x1)
T1AE4 002:519.416 JLINK_HasError()
T1AE4 002:519.423 JLINK_ReadReg(R0)
T1AE4 002:519.429 - 0.008ms returns 0x08043741
T1AE4 002:519.434 JLINK_ReadReg(R1)
T1AE4 002:519.439 - 0.006ms returns 0x2001CCF0
T1AE4 002:519.444 JLINK_ReadReg(R2)
T1AE4 002:519.448 - 0.006ms returns 0x00000000
T1AE4 002:519.453 JLINK_ReadReg(R3)
T1AE4 002:519.458 - 0.006ms returns 0x080063D1
T1AE4 002:519.462 JLINK_ReadReg(R4)
T1AE4 002:519.467 - 0.006ms returns 0x0808E458
T1AE4 002:519.472 JLINK_ReadReg(R5)
T1AE4 002:519.476 - 0.006ms returns 0x0808E458
T1AE4 002:519.481 JLINK_ReadReg(R6)
T1AE4 002:519.485 - 0.006ms returns 0x00000000
T1AE4 002:519.490 JLINK_ReadReg(R7)
T1AE4 002:519.494 - 0.006ms returns 0x00000000
T1AE4 002:519.499 JLINK_ReadReg(R8)
T1AE4 002:519.503 - 0.006ms returns 0x00000000
T1AE4 002:519.508 JLINK_ReadReg(R9)
T1AE4 002:519.512 - 0.006ms returns 0x00000000
T1AE4 002:519.518 JLINK_ReadReg(R10)
T1AE4 002:519.522 - 0.006ms returns 0x00000000
T1AE4 002:519.527 JLINK_ReadReg(R11)
T1AE4 002:519.531 - 0.006ms returns 0x00000000
T1AE4 002:519.536 JLINK_ReadReg(R12)
T1AE4 002:519.540 - 0.006ms returns 0x00000000
T1AE4 002:519.545 JLINK_ReadReg(R13 (SP))
T1AE4 002:519.549 - 0.006ms returns 0x20018CF8
T1AE4 002:519.554 JLINK_ReadReg(R14)
T1AE4 002:519.559 - 0.006ms returns 0x08000991
T1AE4 002:519.563 JLINK_ReadReg(R15 (PC))
T1AE4 002:519.568 - 0.006ms returns 0x08043740
T1AE4 002:519.573 JLINK_ReadReg(XPSR)
T1AE4 002:519.577 - 0.006ms returns 0x61000000
T1AE4 002:519.582 JLINK_ReadReg(MSP)
T1AE4 002:519.586 - 0.006ms returns 0x20018CF8
T1AE4 002:519.591 JLINK_ReadReg(PSP)
T1AE4 002:519.595 - 0.006ms returns 0x00000000
T1AE4 002:519.600 JLINK_ReadReg(CFBP)
T1AE4 002:519.604 - 0.006ms returns 0x00000000
T1AE4 002:519.609 JLINK_ReadReg(FPSCR)
T1AE4 002:522.574 - 2.971ms returns 0x00000000
T1AE4 002:522.586 JLINK_ReadReg(FPS0)
T1AE4 002:522.592 - 0.008ms returns 0x00000000
T1AE4 002:522.597 JLINK_ReadReg(FPS1)
T1AE4 002:522.602 - 0.006ms returns 0x00000000
T1AE4 002:522.607 JLINK_ReadReg(FPS2)
T1AE4 002:522.611 - 0.006ms returns 0x00000000
T1AE4 002:522.616 JLINK_ReadReg(FPS3)
T1AE4 002:522.620 - 0.006ms returns 0x00000000
T1AE4 002:522.625 JLINK_ReadReg(FPS4)
T1AE4 002:522.629 - 0.006ms returns 0x00000000
T1AE4 002:522.634 JLINK_ReadReg(FPS5)
T1AE4 002:522.639 - 0.006ms returns 0x00000000
T1AE4 002:522.644 JLINK_ReadReg(FPS6)
T1AE4 002:522.648 - 0.006ms returns 0x00000000
T1AE4 002:522.653 JLINK_ReadReg(FPS7)
T1AE4 002:522.657 - 0.006ms returns 0x00000000
T1AE4 002:522.662 JLINK_ReadReg(FPS8)
T1AE4 002:522.666 - 0.006ms returns 0x00000000
T1AE4 002:522.671 JLINK_ReadReg(FPS9)
T1AE4 002:522.676 - 0.006ms returns 0x00000000
T1AE4 002:522.681 JLINK_ReadReg(FPS10)
T1AE4 002:522.685 - 0.006ms returns 0x00000000
T1AE4 002:522.690 JLINK_ReadReg(FPS11)
T1AE4 002:522.695 - 0.008ms returns 0x00000000
T1AE4 002:522.701 JLINK_ReadReg(FPS12)
T1AE4 002:522.707 - 0.009ms returns 0x00000000
T1AE4 002:522.713 JLINK_ReadReg(FPS13)
T1AE4 002:522.718 - 0.006ms returns 0x00000000
T1AE4 002:522.723 JLINK_ReadReg(FPS14)
T1AE4 002:522.727 - 0.006ms returns 0x00000000
T1AE4 002:522.732 JLINK_ReadReg(FPS15)
T1AE4 002:522.736 - 0.006ms returns 0x00000000
T1AE4 002:522.797 JLINK_ReadReg(FPS16)
T1AE4 002:522.809 - 0.013ms returns 0x00000000
T1AE4 002:522.815 JLINK_ReadReg(FPS17)
T1AE4 002:522.820 - 0.006ms returns 0x00000000
T1AE4 002:522.825 JLINK_ReadReg(FPS18)
T1AE4 002:522.829 - 0.006ms returns 0x00000000
T1AE4 002:522.834 JLINK_ReadReg(FPS19)
T1AE4 002:522.838 - 0.006ms returns 0x00000000
T1AE4 002:522.843 JLINK_ReadReg(FPS20)
T1AE4 002:522.847 - 0.006ms returns 0x00000000
T1AE4 002:522.852 JLINK_ReadReg(FPS21)
T1AE4 002:522.857 - 0.006ms returns 0x00000000
T1AE4 002:522.862 JLINK_ReadReg(FPS22)
T1AE4 002:522.866 - 0.006ms returns 0x00000000
T1AE4 002:522.871 JLINK_ReadReg(FPS23)
T1AE4 002:522.875 - 0.006ms returns 0x00000000
T1AE4 002:522.880 JLINK_ReadReg(FPS24)
T1AE4 002:522.884 - 0.006ms returns 0x00000000
T1AE4 002:522.889 JLINK_ReadReg(FPS25)
T1AE4 002:522.893 - 0.006ms returns 0x00000000
T1AE4 002:522.898 JLINK_ReadReg(FPS26)
T1AE4 002:522.903 - 0.006ms returns 0x00000000
T1AE4 002:522.908 JLINK_ReadReg(FPS27)
T1AE4 002:522.912 - 0.006ms returns 0x00000000
T1AE4 002:522.917 JLINK_ReadReg(FPS28)
T1AE4 002:522.921 - 0.006ms returns 0x00000000
T1AE4 002:522.926 JLINK_ReadReg(FPS29)
T1AE4 002:522.930 - 0.006ms returns 0x00000000
T1AE4 002:522.935 JLINK_ReadReg(FPS30)
T1AE4 002:522.939 - 0.006ms returns 0x00000000
T1AE4 002:522.944 JLINK_ReadReg(FPS31)
T1AE4 002:522.948 - 0.006ms returns 0x00000000
T1AE4 002:522.957 JLINK_ReadMemEx(0x2000003C, 0x4 Bytes, Flags = 0x02000000)
T1AE4 002:522.965   CPU_ReadMem(64 bytes @ 0x20000000)
T1AE4 002:523.555    -- Updating C cache (64 bytes @ 0x20000000)
T1AE4 002:523.566    -- Read from C cache (4 bytes @ 0x2000003C)
T1AE4 002:523.572   Data:  00 00 00 00
T1AE4 002:523.578 - 0.623ms returns 4 (0x4)
T1AE4 011:246.717 JLINK_ReadMemEx(0x08043740, 0x2 Bytes, Flags = 0x02000000)
T1AE4 011:246.746   CPU_ReadMem(64 bytes @ 0x08043740)
T1AE4 011:247.276    -- Updating C cache (64 bytes @ 0x08043740)
T1AE4 011:247.287    -- Read from C cache (2 bytes @ 0x08043740)
T1AE4 011:247.293   Data:  BE F7
T1AE4 011:247.299 - 0.584ms returns 2 (0x2)
T1AE4 011:247.307 JLINK_HasError()
T1AE4 011:247.312 JLINK_SetBPEx(Addr = 0x08003438, Type = 0xFFFFFFF2)
T1AE4 011:247.320 - 0.009ms returns 0x00000003
T1AE4 011:247.325 JLINK_HasError()
T1AE4 011:247.330 JLINK_HasError()
T1AE4 011:247.336 JLINK_Go()
T1AE4 011:247.553   CPU_WriteMem(4 bytes @ 0xE0002000)
T1AE4 011:247.769   CPU_ReadMem(4 bytes @ 0xE0001000)
T1AE4 011:247.987   CPU_WriteMem(4 bytes @ 0xE0002008)
T1AE4 011:247.997   CPU_WriteMem(4 bytes @ 0xE000200C)
T1AE4 011:248.697 - 1.369ms
T1AE4 011:348.763 JLINK_HasError()
T1AE4 011:348.789 JLINK_IsHalted()
T1AE4 011:349.088 - 0.307ms returns FALSE
T1AE4 011:449.234 JLINK_HasError()
T1AE4 011:449.253 JLINK_IsHalted()
T1AE4 011:449.590 - 0.344ms returns FALSE
T1AE4 011:550.282 JLINK_HasError()
T1AE4 011:550.325 JLINK_IsHalted()
T1AE4 011:550.638 - 0.325ms returns FALSE
T1AE4 011:651.659 JLINK_HasError()
T1AE4 011:651.675 JLINK_IsHalted()
T1AE4 011:651.984 - 0.315ms returns FALSE
T1AE4 011:752.159 JLINK_HasError()
T1AE4 011:752.185 JLINK_IsHalted()
T1AE4 011:752.459 - 0.281ms returns FALSE
T1AE4 011:853.534 JLINK_HasError()
T1AE4 011:853.553 JLINK_HasError()
T1AE4 011:853.558 JLINK_ReadMemU32(0xE0001004, 0x1 Items)
T1AE4 011:853.572   CPU_ReadMem(4 bytes @ 0xE0001004)
T1AE4 011:853.887   Data:  C0 65 0E 06
T1AE4 011:853.898   Debug reg: DWT_CYCCNT
T1AE4 011:853.904 - 0.348ms returns 1 (0x1)
T1AE4 011:854.035 JLINK_IsHalted()
T1AE4 011:854.340 - 0.311ms returns FALSE
T1AE4 011:954.550 JLINK_HasError()
T1AE4 011:954.571 JLINK_IsHalted()
T1AE4 011:954.890 - 0.325ms returns FALSE
T1AE4 012:055.354 JLINK_HasError()
T1AE4 012:055.370 JLINK_IsHalted()
T1AE4 012:055.741 - 0.378ms returns FALSE
T1AE4 012:156.547 JLINK_HasError()
T1AE4 012:156.567 JLINK_IsHalted()
T1AE4 012:156.800 - 0.237ms returns FALSE
T1AE4 012:257.588 JLINK_HasError()
T1AE4 012:257.604 JLINK_IsHalted()
T1AE4 012:257.842 - 0.242ms returns FALSE
T1AE4 012:358.354 JLINK_HasError()
T1AE4 012:358.372 JLINK_IsHalted()
T1AE4 012:358.703 - 0.337ms returns FALSE
T1AE4 012:458.959 JLINK_HasError()
T1AE4 012:458.978 JLINK_HasError()
T1AE4 012:458.983 JLINK_ReadMemU32(0xE0001004, 0x1 Items)
T1AE4 012:458.998   Data:  C0 65 0E 06
T1AE4 012:459.006   Debug reg: DWT_CYCCNT
T1AE4 012:459.012 - 0.031ms returns 1 (0x1)
T1AE4 012:459.136 JLINK_IsHalted()
T1AE4 012:459.495 - 0.366ms returns FALSE
T1AE4 012:560.175 JLINK_HasError()
T1AE4 012:560.225 JLINK_IsHalted()
T1AE4 012:560.503 - 0.288ms returns FALSE
T1AE4 012:661.052 JLINK_HasError()
T1AE4 012:661.110 JLINK_IsHalted()
T1AE4 012:661.337 - 0.231ms returns FALSE
T1AE4 012:761.712 JLINK_HasError()
T1AE4 012:761.750 JLINK_IsHalted()
T1AE4 012:762.145 - 0.402ms returns FALSE
T1AE4 012:862.655 JLINK_HasError()
T1AE4 012:862.674 JLINK_IsHalted()
T1AE4 012:862.912 - 0.242ms returns FALSE
T1AE4 012:963.187 JLINK_HasError()
T1AE4 012:963.258 JLINK_HasError()
T1AE4 012:963.283 JLINK_ReadMemU32(0xE0001004, 0x1 Items)
T1AE4 012:963.335   Data:  C0 65 0E 06
T1AE4 012:963.368   Debug reg: DWT_CYCCNT
T1AE4 012:963.396 - 0.122ms returns 1 (0x1)
T1AE4 012:963.700 JLINK_IsHalted()
T1AE4 012:964.263 - 0.604ms returns FALSE
T1AE4 013:064.908 JLINK_HasError()
T1AE4 013:064.927 JLINK_IsHalted()
T1AE4 013:065.295 - 0.374ms returns FALSE
T1AE4 013:165.480 JLINK_HasError()
T1AE4 013:165.501 JLINK_IsHalted()
T1AE4 013:165.855 - 0.361ms returns FALSE
T1AE4 013:266.386 JLINK_HasError()
T1AE4 013:266.406 JLINK_IsHalted()
T1AE4 013:266.663 - 0.266ms returns FALSE
T1AE4 013:366.813 JLINK_HasError()
T1AE4 013:366.845 JLINK_IsHalted()
T1AE4 013:367.108 - 0.271ms returns FALSE
T1AE4 013:467.955 JLINK_HasError()
T1AE4 013:467.979 JLINK_IsHalted()
T1AE4 013:470.019 - 2.047ms returns TRUE
T1AE4 013:470.032 JLINK_HasError()
T1AE4 013:470.037 JLINK_Halt()
T1AE4 013:470.041 - 0.006ms returns 0x00
T1AE4 013:470.046 JLINK_IsHalted()
T1AE4 013:470.051 - 0.006ms returns TRUE
T1AE4 013:470.056 JLINK_IsHalted()
T1AE4 013:470.060 - 0.006ms returns TRUE
T1AE4 013:470.064 JLINK_IsHalted()
T1AE4 013:470.068 - 0.006ms returns TRUE
T1AE4 013:470.074 JLINK_HasError()
T1AE4 013:470.079 JLINK_ReadReg(R15 (PC))
T1AE4 013:470.085 - 0.008ms returns 0x08003438
T1AE4 013:470.090 JLINK_ReadReg(XPSR)
T1AE4 013:470.095 - 0.006ms returns 0x21000036
T1AE4 013:470.102 JLINK_HasError()
T1AE4 013:470.107 JLINK_ClrBPEx(BPHandle = 0x00000003)
T1AE4 013:470.112 - 0.007ms returns 0x00
T1AE4 013:470.117 JLINK_HasError()
T1AE4 013:470.122 JLINK_HasError()
T1AE4 013:470.127 JLINK_ReadMemU32(0xE000ED30, 0x1 Items)
T1AE4 013:470.136   CPU_ReadMem(4 bytes @ 0xE000ED30)
T1AE4 013:470.437   Data:  02 00 00 00
T1AE4 013:470.447 - 0.322ms returns 1 (0x1)
T1AE4 013:470.454 JLINK_ReadMemU32(0xE0001028, 0x1 Items)
T1AE4 013:470.462   CPU_ReadMem(4 bytes @ 0xE0001028)
T1AE4 013:470.762   Data:  00 00 00 00
T1AE4 013:470.773   Debug reg: DWT_FUNC[0]
T1AE4 013:470.779 - 0.327ms returns 1 (0x1)
T1AE4 013:470.785 JLINK_ReadMemU32(0xE0001038, 0x1 Items)
T1AE4 013:470.794   CPU_ReadMem(4 bytes @ 0xE0001038)
T1AE4 013:471.127   Data:  00 02 00 00
T1AE4 013:471.137   Debug reg: DWT_FUNC[1]
T1AE4 013:471.143 - 0.360ms returns 1 (0x1)
T1AE4 013:471.150 JLINK_ReadMemU32(0xE0001048, 0x1 Items)
T1AE4 013:471.158   CPU_ReadMem(4 bytes @ 0xE0001048)
T1AE4 013:471.407   Data:  00 00 00 00
T1AE4 013:471.417   Debug reg: DWT_FUNC[2]
T1AE4 013:471.423 - 0.275ms returns 1 (0x1)
T1AE4 013:471.430 JLINK_ReadMemU32(0xE0001058, 0x1 Items)
T1AE4 013:471.438   CPU_ReadMem(4 bytes @ 0xE0001058)
T1AE4 013:471.673   Data:  00 00 00 00
T1AE4 013:471.683   Debug reg: DWT_FUNC[3]
T1AE4 013:471.689 - 0.261ms returns 1 (0x1)
T1AE4 013:471.809 JLINK_HasError()
T1AE4 013:471.816 JLINK_ReadReg(R0)
T1AE4 013:471.877 - 0.066ms returns 0x2001C290
T1AE4 013:471.886 JLINK_ReadReg(R1)
T1AE4 013:471.891 - 0.006ms returns 0x00000008
T1AE4 013:471.896 JLINK_ReadReg(R2)
T1AE4 013:471.901 - 0.007ms returns 0x2001C3E0
T1AE4 013:471.907 JLINK_ReadReg(R3)
T1AE4 013:471.913 - 0.009ms returns 0x00000020
T1AE4 013:471.920 JLINK_ReadReg(R4)
T1AE4 013:471.926 - 0.007ms returns 0x00000008
T1AE4 013:471.931 JLINK_ReadReg(R5)
T1AE4 013:471.935 - 0.006ms returns 0x2001C290
T1AE4 013:471.940 JLINK_ReadReg(R6)
T1AE4 013:471.944 - 0.006ms returns 0x00000002
T1AE4 013:471.949 JLINK_ReadReg(R7)
T1AE4 013:471.953 - 0.006ms returns 0x00000100
T1AE4 013:471.958 JLINK_ReadReg(R8)
T1AE4 013:471.963 - 0.006ms returns 0x10000000
T1AE4 013:471.968 JLINK_ReadReg(R9)
T1AE4 013:471.972 - 0.006ms returns 0xE000ED04
T1AE4 013:471.977 JLINK_ReadReg(R10)
T1AE4 013:471.981 - 0.006ms returns 0xA5A5A5A5
T1AE4 013:471.986 JLINK_ReadReg(R11)
T1AE4 013:471.990 - 0.006ms returns 0xA5A5A5A5
T1AE4 013:471.995 JLINK_ReadReg(R12)
T1AE4 013:471.999 - 0.006ms returns 0xA5A5A5A5
T1AE4 013:472.004 JLINK_ReadReg(R13 (SP))
T1AE4 013:472.009 - 0.006ms returns 0x20018CB0
T1AE4 013:472.014 JLINK_ReadReg(R14)
T1AE4 013:472.018 - 0.006ms returns 0x08003691
T1AE4 013:472.023 JLINK_ReadReg(R15 (PC))
T1AE4 013:472.027 - 0.006ms returns 0x08003438
T1AE4 013:472.032 JLINK_ReadReg(XPSR)
T1AE4 013:472.037 - 0.006ms returns 0x21000036
T1AE4 013:472.041 JLINK_ReadReg(MSP)
T1AE4 013:472.046 - 0.006ms returns 0x20018CB0
T1AE4 013:472.050 JLINK_ReadReg(PSP)
T1AE4 013:472.055 - 0.006ms returns 0x20000968
T1AE4 013:472.060 JLINK_ReadReg(CFBP)
T1AE4 013:472.064 - 0.006ms returns 0x00000000
T1AE4 013:472.069 JLINK_ReadReg(FPSCR)
T1AE4 013:474.976 - 2.913ms returns 0x00000000
T1AE4 013:474.987 JLINK_ReadReg(FPS0)
T1AE4 013:474.993 - 0.008ms returns 0x00000000
T1AE4 013:474.998 JLINK_ReadReg(FPS1)
T1AE4 013:475.002 - 0.006ms returns 0x3FE2687D
T1AE4 013:475.007 JLINK_ReadReg(FPS2)
T1AE4 013:475.012 - 0.006ms returns 0x00000000
T1AE4 013:475.017 JLINK_ReadReg(FPS3)
T1AE4 013:475.021 - 0.006ms returns 0x00000000
T1AE4 013:475.026 JLINK_ReadReg(FPS4)
T1AE4 013:475.030 - 0.006ms returns 0x00000000
T1AE4 013:475.035 JLINK_ReadReg(FPS5)
T1AE4 013:475.039 - 0.006ms returns 0x00000000
T1AE4 013:475.044 JLINK_ReadReg(FPS6)
T1AE4 013:475.049 - 0.006ms returns 0x00000000
T1AE4 013:475.053 JLINK_ReadReg(FPS7)
T1AE4 013:475.058 - 0.006ms returns 0x00000000
T1AE4 013:475.063 JLINK_ReadReg(FPS8)
T1AE4 013:475.067 - 0.006ms returns 0x00000000
T1AE4 013:475.072 JLINK_ReadReg(FPS9)
T1AE4 013:475.076 - 0.006ms returns 0x00000000
T1AE4 013:475.081 JLINK_ReadReg(FPS10)
T1AE4 013:475.085 - 0.006ms returns 0x00000000
T1AE4 013:475.090 JLINK_ReadReg(FPS11)
T1AE4 013:475.094 - 0.006ms returns 0x00000000
T1AE4 013:475.099 JLINK_ReadReg(FPS12)
T1AE4 013:475.104 - 0.006ms returns 0x00000000
T1AE4 013:475.109 JLINK_ReadReg(FPS13)
T1AE4 013:475.113 - 0.006ms returns 0x00000000
T1AE4 013:475.118 JLINK_ReadReg(FPS14)
T1AE4 013:475.122 - 0.006ms returns 0x00000000
T1AE4 013:475.127 JLINK_ReadReg(FPS15)
T1AE4 013:475.131 - 0.006ms returns 0x00000000
T1AE4 013:475.136 JLINK_ReadReg(FPS16)
T1AE4 013:475.141 - 0.007ms returns 0x00000000
T1AE4 013:475.147 JLINK_ReadReg(FPS17)
T1AE4 013:475.151 - 0.006ms returns 0x00000000
T1AE4 013:475.156 JLINK_ReadReg(FPS18)
T1AE4 013:475.160 - 0.006ms returns 0x00000000
T1AE4 013:475.165 JLINK_ReadReg(FPS19)
T1AE4 013:475.170 - 0.006ms returns 0x00000000
T1AE4 013:475.175 JLINK_ReadReg(FPS20)
T1AE4 013:475.179 - 0.006ms returns 0x00000000
T1AE4 013:475.184 JLINK_ReadReg(FPS21)
T1AE4 013:475.189 - 0.006ms returns 0x00000000
T1AE4 013:475.193 JLINK_ReadReg(FPS22)
T1AE4 013:475.198 - 0.006ms returns 0x00000000
T1AE4 013:475.203 JLINK_ReadReg(FPS23)
T1AE4 013:475.207 - 0.006ms returns 0x00000000
T1AE4 013:475.212 JLINK_ReadReg(FPS24)
T1AE4 013:475.216 - 0.006ms returns 0x00000000
T1AE4 013:475.221 JLINK_ReadReg(FPS25)
T1AE4 013:475.226 - 0.006ms returns 0x00000000
T1AE4 013:475.230 JLINK_ReadReg(FPS26)
T1AE4 013:475.237 - 0.009ms returns 0x00000000
T1AE4 013:475.243 JLINK_ReadReg(FPS27)
T1AE4 013:475.248 - 0.006ms returns 0x00000000
T1AE4 013:475.253 JLINK_ReadReg(FPS28)
T1AE4 013:475.257 - 0.006ms returns 0x00000000
T1AE4 013:475.262 JLINK_ReadReg(FPS29)
T1AE4 013:475.266 - 0.006ms returns 0x00000000
T1AE4 013:475.271 JLINK_ReadReg(FPS30)
T1AE4 013:475.275 - 0.006ms returns 0x00000000
T1AE4 013:475.280 JLINK_ReadReg(FPS31)
T1AE4 013:475.284 - 0.006ms returns 0x00000000
T1AE4 013:475.292 JLINK_ReadMemEx(0x2000003C, 0x4 Bytes, Flags = 0x02000000)
T1AE4 013:475.301   CPU_ReadMem(64 bytes @ 0x20000000)
T1AE4 013:475.818    -- Updating C cache (64 bytes @ 0x20000000)
T1AE4 013:475.829    -- Read from C cache (4 bytes @ 0x2000003C)
T1AE4 013:475.835   Data:  08 00 00 00
T1AE4 013:475.841 - 0.550ms returns 4 (0x4)
T1AE4 013:475.849 JLINK_ReadMemEx(0x20000034, 0x4 Bytes, Flags = 0x02000000)
T1AE4 013:475.856    -- Read from C cache (4 bytes @ 0x20000034)
T1AE4 013:475.862   Data:  34 07 00 20
T1AE4 013:475.868 - 0.020ms returns 4 (0x4)
T3328 013:476.507 JLINK_ReadMemEx(0x20018CBC, 0x4 Bytes, Flags = 0x02000000)
T3328 013:476.521   CPU_ReadMem(64 bytes @ 0x20018C80)
T3328 013:477.073    -- Updating C cache (64 bytes @ 0x20018C80)
T3328 013:477.084    -- Read from C cache (4 bytes @ 0x20018CBC)
T3328 013:477.091   Data:  91 36 00 08
T3328 013:477.097 - 0.592ms returns 4 (0x4)
T3328 013:477.525 JLINK_ReadMemEx(0x20018CB0, 0x4 Bytes, Flags = 0x02000000)
T3328 013:477.535    -- Read from C cache (4 bytes @ 0x20018CB0)
T3328 013:477.541   Data:  90 C2 01 20
T3328 013:477.547 - 0.024ms returns 4 (0x4)
T3328 013:477.553 JLINK_ReadMemEx(0x20018CB4, 0x4 Bytes, Flags = 0x02000000)
T3328 013:477.558    -- Read from C cache (4 bytes @ 0x20018CB4)
T3328 013:477.564   Data:  00 00 00 00
T3328 013:477.570 - 0.019ms returns 4 (0x4)
T3328 013:477.575 JLINK_ReadMemEx(0x20018CB8, 0x4 Bytes, Flags = 0x02000000)
T3328 013:477.580    -- Read from C cache (4 bytes @ 0x20018CB8)
T3328 013:477.586   Data:  02 00 00 00
T3328 013:477.592 - 0.018ms returns 4 (0x4)
T3328 013:477.597 JLINK_ReadMemEx(0x20018CBC, 0x4 Bytes, Flags = 0x02000000)
T3328 013:477.602    -- Read from C cache (4 bytes @ 0x20018CBC)
T3328 013:477.608   Data:  91 36 00 08
T3328 013:477.614 - 0.018ms returns 4 (0x4)
T3328 013:477.621 JLINK_ReadMemEx(0x20018CD4, 0x4 Bytes, Flags = 0x02000000)
T3328 013:477.627   CPU_ReadMem(64 bytes @ 0x20018CC0)
T3328 013:478.133    -- Updating C cache (64 bytes @ 0x20018CC0)
T3328 013:478.143    -- Read from C cache (4 bytes @ 0x20018CD4)
T3328 013:478.149   Data:  FD FF FF FF
T3328 013:478.155 - 0.536ms returns 4 (0x4)
T3328 013:478.162 JLINK_ReadMemEx(0x20000980, 0x4 Bytes, Flags = 0x02000000)
T3328 013:478.169   CPU_ReadMem(64 bytes @ 0x20000980)
T3328 013:478.664    -- Updating C cache (64 bytes @ 0x20000980)
T3328 013:478.672    -- Read from C cache (4 bytes @ 0x20000980)
T3328 013:478.678   Data:  7E 59 04 08
T3328 013:478.684 - 0.524ms returns 4 (0x4)
T3328 013:478.690 JLINK_ReadMemEx(0x20000984, 0x4 Bytes, Flags = 0x02000000)
T3328 013:478.696    -- Read from C cache (4 bytes @ 0x20000984)
T3328 013:478.702   Data:  00 00 00 61
T3328 013:478.707 - 0.019ms returns 4 (0x4)
T3328 013:478.712 JLINK_ReadMemEx(0x2000097C, 0x4 Bytes, Flags = 0x02000000)
T3328 013:478.718   CPU_ReadMem(64 bytes @ 0x20000940)
T3328 013:479.203    -- Updating C cache (64 bytes @ 0x20000940)
T3328 013:479.215    -- Read from C cache (4 bytes @ 0x2000097C)
T3328 013:479.221   Data:  FD 5D 04 08
T3328 013:479.227 - 0.516ms returns 4 (0x4)
T3328 013:479.235 JLINK_ReadMemEx(0xE000ED28, 0x4 Bytes, Flags = 0x02000000)
T3328 013:479.244   CPU_ReadMem(4 bytes @ 0xE000ED28)
T3328 013:479.459   Data:  00 00 00 00
T3328 013:479.468 - 0.234ms returns 4 (0x4)
T3328 013:479.914 JLINK_ReadMemEx(0x20000974, 0x4 Bytes, Flags = 0x02000000)
T3328 013:479.923    -- Read from C cache (4 bytes @ 0x20000974)
T3328 013:479.929   Data:  A5 A5 A5 A5
T3328 013:479.935 - 0.023ms returns 4 (0x4)
T3328 013:479.940 JLINK_ReadMemEx(0x20000978, 0x4 Bytes, Flags = 0x02000000)
T3328 013:479.948    -- Read from C cache (4 bytes @ 0x20000978)
T3328 013:479.955   Data:  A5 A5 A5 A5
T3328 013:479.961 - 0.022ms returns 4 (0x4)
T3328 013:479.966 JLINK_ReadMemEx(0x2000097C, 0x4 Bytes, Flags = 0x02000000)
T3328 013:479.971    -- Read from C cache (4 bytes @ 0x2000097C)
T3328 013:479.977   Data:  FD 5D 04 08
T3328 013:479.983 - 0.018ms returns 4 (0x4)
T3328 013:479.988 JLINK_ReadMemEx(0x20000980, 0x4 Bytes, Flags = 0x02000000)
T3328 013:479.993    -- Read from C cache (4 bytes @ 0x20000980)
T3328 013:479.999   Data:  7E 59 04 08
T3328 013:480.005 - 0.018ms returns 4 (0x4)
T3328 013:480.009 JLINK_ReadMemEx(0x20000984, 0x4 Bytes, Flags = 0x02000000)
T3328 013:480.014    -- Read from C cache (4 bytes @ 0x20000984)
T3328 013:480.020   Data:  00 00 00 61
T3328 013:480.026 - 0.018ms returns 4 (0x4)
T3328 013:488.888 JLINK_ReadMemEx(0x08003438, 0x3C Bytes, Flags = 0x02000000)
T3328 013:488.915   CPU_ReadMem(128 bytes @ 0x08003400)
T3328 013:489.759    -- Updating C cache (128 bytes @ 0x08003400)
T3328 013:489.769    -- Read from C cache (60 bytes @ 0x08003438)
T3328 013:489.776   Data:  40 F0 C2 FD 21 46 28 46 BD E8 70 40 40 F0 14 BF ...
T3328 013:489.782 - 0.895ms returns 60 (0x3C)
T3328 013:489.788 JLINK_ReadMemEx(0x08003438, 0x2 Bytes, Flags = 0x02000000)
T3328 013:489.793    -- Read from C cache (2 bytes @ 0x08003438)
T3328 013:489.800   Data:  40 F0
T3328 013:489.805 - 0.019ms returns 2 (0x2)
T3328 013:489.811 JLINK_ReadMemEx(0x0800343A, 0x2 Bytes, Flags = 0x02000000)
T3328 013:489.816    -- Read from C cache (2 bytes @ 0x0800343A)
T3328 013:489.822   Data:  C2 FD
T3328 013:489.827 - 0.018ms returns 2 (0x2)
T3328 013:489.842 JLINK_ReadMemEx(0x0800343C, 0x3C Bytes, Flags = 0x02000000)
T3328 013:489.847    -- Read from C cache (60 bytes @ 0x0800343C)
T3328 013:489.854   Data:  21 46 28 46 BD E8 70 40 40 F0 14 BF 70 B5 04 46 ...
T3328 013:489.860 - 0.019ms returns 60 (0x3C)
T3328 013:489.865 JLINK_ReadMemEx(0x0800343C, 0x2 Bytes, Flags = 0x02000000)
T3328 013:489.869    -- Read from C cache (2 bytes @ 0x0800343C)
T3328 013:489.875   Data:  21 46
T3328 013:489.881 - 0.018ms returns 2 (0x2)
T3328 013:489.886 JLINK_ReadMemEx(0x0800343E, 0x2 Bytes, Flags = 0x02000000)
T3328 013:489.890    -- Read from C cache (2 bytes @ 0x0800343E)
T3328 013:489.896   Data:  28 46
T3328 013:489.902 - 0.018ms returns 2 (0x2)
T1AE4 017:847.643 JLINK_ReadMemEx(0x08003438, 0x2 Bytes, Flags = 0x02000000)
T1AE4 017:847.663    -- Read from C cache (2 bytes @ 0x08003438)
T1AE4 017:847.670   Data:  40 F0
T1AE4 017:847.676 - 0.035ms returns 2 (0x2)
T1AE4 017:847.682 JLINK_HasError()
T1AE4 017:847.689 JLINK_HasError()
T1AE4 017:847.694 JLINK_Go()
T1AE4 017:848.030   CPU_ReadMem(4 bytes @ 0xE0001000)
T1AE4 017:848.342   CPU_WriteMem(4 bytes @ 0xE0002008)
T1AE4 017:849.156 - 1.468ms
T1AE4 017:949.558 JLINK_HasError()
T1AE4 017:949.579 JLINK_IsHalted()
T1AE4 017:949.906 - 0.334ms returns FALSE
T1AE4 018:050.209 JLINK_HasError()
T1AE4 018:050.226 JLINK_IsHalted()
T1AE4 018:050.543 - 0.324ms returns FALSE
T1AE4 018:150.924 JLINK_HasError()
T1AE4 018:150.942 JLINK_IsHalted()
T1AE4 018:151.286 - 0.350ms returns FALSE
T1AE4 018:252.103 JLINK_HasError()
T1AE4 018:252.120 JLINK_IsHalted()
T1AE4 018:252.414 - 0.298ms returns FALSE
T1AE4 018:352.543 JLINK_HasError()
T1AE4 018:352.566 JLINK_HasError()
T1AE4 018:352.571 JLINK_ReadMemU32(0xE0001004, 0x1 Items)
T1AE4 018:352.588   CPU_ReadMem(4 bytes @ 0xE0001004)
T1AE4 018:352.829   Data:  A9 B2 B3 1A
T1AE4 018:352.838   Debug reg: DWT_CYCCNT
T1AE4 018:352.844 - 0.274ms returns 1 (0x1)
T1AE4 018:352.910 JLINK_IsHalted()
T1AE4 018:353.125 - 0.223ms returns FALSE
T1AE4 018:453.586 JLINK_HasError()
T1AE4 018:453.607 JLINK_IsHalted()
T1AE4 018:453.872 - 0.271ms returns FALSE
T1AE4 018:554.413 JLINK_HasError()
T1AE4 018:554.434 JLINK_IsHalted()
T1AE4 018:554.761 - 0.334ms returns FALSE
T1AE4 018:654.823 JLINK_HasError()
T1AE4 018:654.838 JLINK_IsHalted()
T1AE4 018:655.101 - 0.267ms returns FALSE
T1AE4 018:755.718 JLINK_HasError()
T1AE4 018:755.742 JLINK_IsHalted()
T1AE4 018:756.121 - 0.385ms returns FALSE
T1AE4 018:856.593 JLINK_HasError()
T1AE4 018:856.617 JLINK_IsHalted()
T1AE4 018:856.851 - 0.238ms returns FALSE
T1AE4 018:957.091 JLINK_HasError()
T1AE4 018:957.149 JLINK_HasError()
T1AE4 018:957.155 JLINK_ReadMemU32(0xE0001004, 0x1 Items)
T1AE4 018:957.175   Data:  A9 B2 B3 1A
T1AE4 018:957.183   Debug reg: DWT_CYCCNT
T1AE4 018:957.189 - 0.036ms returns 1 (0x1)
T1AE4 018:957.322 JLINK_IsHalted()
T1AE4 018:957.586 - 0.270ms returns FALSE
T1AE4 019:057.978 JLINK_HasError()
T1AE4 019:057.995 JLINK_IsHalted()
T1AE4 019:058.309 - 0.320ms returns FALSE
T1AE4 019:159.166 JLINK_HasError()
T1AE4 019:159.186 JLINK_IsHalted()
T1AE4 019:159.584 - 0.405ms returns FALSE
T1AE4 019:260.068 JLINK_HasError()
T1AE4 019:260.086 JLINK_IsHalted()
T1AE4 019:260.318 - 0.237ms returns FALSE
T1AE4 019:360.512 JLINK_HasError()
T1AE4 019:360.532 JLINK_IsHalted()
T1AE4 019:360.859 - 0.333ms returns FALSE
T1AE4 019:461.401 JLINK_HasError()
T1AE4 019:461.422 JLINK_HasError()
T1AE4 019:461.427 JLINK_ReadMemU32(0xE0001004, 0x1 Items)
T1AE4 019:461.442   Data:  A9 B2 B3 1A
T1AE4 019:461.450   Debug reg: DWT_CYCCNT
T1AE4 019:461.455 - 0.030ms returns 1 (0x1)
T1AE4 019:461.518 JLINK_IsHalted()
T1AE4 019:461.756 - 0.242ms returns FALSE
T1AE4 019:562.111 JLINK_HasError()
T1AE4 019:562.175 JLINK_IsHalted()
T1AE4 019:562.686 - 0.542ms returns FALSE
T1AE4 019:663.830 JLINK_HasError()
T1AE4 019:663.849 JLINK_IsHalted()
T1AE4 019:664.186 - 0.343ms returns FALSE
T1AE4 019:765.004 JLINK_HasError()
T1AE4 019:765.067 JLINK_IsHalted()
T1AE4 019:765.344 - 0.283ms returns FALSE
T1AE4 019:865.669 JLINK_HasError()
T1AE4 019:865.687 JLINK_IsHalted()
T1AE4 019:865.961 - 0.282ms returns FALSE
T1AE4 019:966.041 JLINK_HasError()
T1AE4 019:966.064 JLINK_IsHalted()
T1AE4 019:966.401 - 0.343ms returns FALSE
T1AE4 020:067.357 JLINK_HasError()
T1AE4 020:067.377 JLINK_HasError()
T1AE4 020:067.383 JLINK_ReadMemU32(0xE0001004, 0x1 Items)
T1AE4 020:067.397   Data:  A9 B2 B3 1A
T1AE4 020:067.404   Debug reg: DWT_CYCCNT
T1AE4 020:067.410 - 0.029ms returns 1 (0x1)
T1AE4 020:067.497 JLINK_IsHalted()
T1AE4 020:067.849 - 0.358ms returns FALSE
T1AE4 020:168.038 JLINK_HasError()
T1AE4 020:168.059 JLINK_IsHalted()
T1AE4 020:168.423 - 0.371ms returns FALSE
T1AE4 020:268.665 JLINK_HasError()
T1AE4 020:268.684 JLINK_IsHalted()
T1AE4 020:268.998 - 0.320ms returns FALSE
T1AE4 020:369.225 JLINK_HasError()
T1AE4 020:369.243 JLINK_IsHalted()
T1AE4 020:369.504 - 0.267ms returns FALSE
T1AE4 020:469.728 JLINK_HasError()
T1AE4 020:469.790 JLINK_IsHalted()
T1AE4 020:470.068 - 0.286ms returns FALSE
T1AE4 020:571.098 JLINK_HasError()
T1AE4 020:571.164 JLINK_HasError()
T1AE4 020:571.170 JLINK_ReadMemU32(0xE0001004, 0x1 Items)
T1AE4 020:571.184   Data:  A9 B2 B3 1A
T1AE4 020:571.191   Debug reg: DWT_CYCCNT
T1AE4 020:571.196 - 0.028ms returns 1 (0x1)
T1AE4 020:571.286 JLINK_IsHalted()
T1AE4 020:571.564 - 0.282ms returns FALSE
T1AE4 020:671.860 JLINK_HasError()
T1AE4 020:671.885 JLINK_IsHalted()
T1AE4 020:672.125 - 0.246ms returns FALSE
T1AE4 020:772.260 JLINK_HasError()
T1AE4 020:772.277 JLINK_IsHalted()
T1AE4 020:772.632 - 0.361ms returns FALSE
T1AE4 020:873.469 JLINK_HasError()
T1AE4 020:873.487 JLINK_IsHalted()
T1AE4 020:873.810 - 0.329ms returns FALSE
T1AE4 020:974.004 JLINK_HasError()
T1AE4 020:974.025 JLINK_IsHalted()
T1AE4 020:974.344 - 0.325ms returns FALSE
T1AE4 021:074.597 JLINK_HasError()
T1AE4 021:074.636 JLINK_IsHalted()
T1AE4 021:074.925 - 0.294ms returns FALSE
T1AE4 021:175.612 JLINK_HasError()
T1AE4 021:175.631 JLINK_HasError()
T1AE4 021:175.636 JLINK_ReadMemU32(0xE0001004, 0x1 Items)
T1AE4 021:175.650   Data:  A9 B2 B3 1A
T1AE4 021:175.657   Debug reg: DWT_CYCCNT
T1AE4 021:175.663 - 0.028ms returns 1 (0x1)
T1AE4 021:175.741 JLINK_IsHalted()
T1AE4 021:176.122 - 0.387ms returns FALSE
T1AE4 021:276.630 JLINK_HasError()
T1AE4 021:276.650 JLINK_IsHalted()
T1AE4 021:276.912 - 0.271ms returns FALSE
T1AE4 021:377.457 JLINK_HasError()
T1AE4 021:377.478 JLINK_IsHalted()
T1AE4 021:377.790 - 0.319ms returns FALSE
T1AE4 021:477.945 JLINK_HasError()
T1AE4 021:477.966 JLINK_IsHalted()
T1AE4 021:478.253 - 0.294ms returns FALSE
T1AE4 021:578.900 JLINK_HasError()
T1AE4 021:578.920 JLINK_IsHalted()
T1AE4 021:579.301 - 0.388ms returns FALSE
T1AE4 021:679.734 JLINK_HasError()
T1AE4 021:679.755 JLINK_HasError()
T1AE4 021:679.760 JLINK_ReadMemU32(0xE0001004, 0x1 Items)
T1AE4 021:679.775   Data:  A9 B2 B3 1A
T1AE4 021:679.782   Debug reg: DWT_CYCCNT
T1AE4 021:679.787 - 0.028ms returns 1 (0x1)
T1AE4 021:680.595 JLINK_IsHalted()
T1AE4 021:680.893 - 0.302ms returns FALSE
T1AE4 021:781.868 JLINK_HasError()
T1AE4 021:781.888 JLINK_IsHalted()
T1AE4 021:782.325 - 0.443ms returns FALSE
T1AE4 021:882.516 JLINK_HasError()
T1AE4 021:882.536 JLINK_IsHalted()
T1AE4 021:882.870 - 0.341ms returns FALSE
T1AE4 021:984.196 JLINK_HasError()
T1AE4 021:984.220 JLINK_IsHalted()
T1AE4 021:984.460 - 0.244ms returns FALSE
T1AE4 022:085.295 JLINK_HasError()
T1AE4 022:085.316 JLINK_IsHalted()
T1AE4 022:085.623 - 0.313ms returns FALSE
T1AE4 022:186.618 JLINK_HasError()
T1AE4 022:186.635 JLINK_IsHalted()
T1AE4 022:186.938 - 0.309ms returns FALSE
T1AE4 022:287.083 JLINK_HasError()
T1AE4 022:287.099 JLINK_HasError()
T1AE4 022:287.104 JLINK_ReadMemU32(0xE0001004, 0x1 Items)
T1AE4 022:287.119   Data:  A9 B2 B3 1A
T1AE4 022:287.126   Debug reg: DWT_CYCCNT
T1AE4 022:287.132 - 0.029ms returns 1 (0x1)
T1AE4 022:287.260 JLINK_IsHalted()
T1AE4 022:287.591 - 0.336ms returns FALSE
T1AE4 022:387.717 JLINK_HasError()
T1AE4 022:387.737 JLINK_IsHalted()
T1AE4 022:388.190 - 0.459ms returns FALSE
T1AE4 022:488.799 JLINK_HasError()
T1AE4 022:488.819 JLINK_IsHalted()
T1AE4 022:489.133 - 0.320ms returns FALSE
T1AE4 022:589.450 JLINK_HasError()
T1AE4 022:589.471 JLINK_IsHalted()
